T184C 6148:208 SEGGER J-Link V6.32c Log File (0001ms, 23305ms total)
T184C 6148:208 DLL Compiled: May 11 2018 16:30:26 (0001ms, 23305ms total)
T184C 6148:208 Logging started @ 2018-07-09 03:04 (0001ms, 23305ms total)
T184C 6148:209 JLINK_SetWarnOutHandler(...) (0000ms, 23305ms total)
T184C 6148:209 JLINK_OpenEx(...)
Firmware: J-Link V10 compiled Apr 20 2018 16:47:09
Hardware: V10.10
S/N: 260104688
OEM: SEGGER-EDU
Feature(s): FlashBP, GDB
TELNET listener socket opened on port 19021Ref file found at: C:\Keil_v5\ARM\Segger\JLinkDevices.ref (0119ms, 23424ms total)
T184C 6148:209 XML referenced by ref file: C:\Program Files (x86)\SEGGER\JLink_V632c\JLinkDevices.xml (0119ms, 23424ms total)
T184C 6148:209 C:\Program Files (x86)\SEGGER\JLink_V632c\JLinkDevices.xml evaluated successfully.Device "STM32F091CB" selected.WEBSRV 
Starting webserver (1008ms, 24313ms total)
T184C 6148:209 WEBSRV Webserver running on local port 19080 (1008ms, 24313ms total)
T184C 6148:209   returns O.K. (1008ms, 24313ms total)
T184C 6149:218 JLINK_GetEmuCaps()  returns 0xB9FF7BBF (0000ms, 24313ms total)
T184C 6149:218 JLINK_TIF_GetAvailable(...) (0000ms, 24313ms total)
T184C 6149:218 JLINK_SetErrorOutHandler(...) (0000ms, 24313ms total)
T184C 6149:218 JLINK_ExecCommand("ProjectFile = "C:\Users\iohertz\Documents\freelancing\h0br4\MDK-ARM\JLinkSettings.ini"", ...). Device "STM32F091CB" selected.  returns 0x00 (0005ms, 24318ms total)
T184C 6149:224 JLINK_ExecCommand("Device = STM32F091CBTx", ...). Device "STM32F091CB" selected.  returns 0x00 (0005ms, 24323ms total)
T184C 6149:229 JLINK_ExecCommand("DisableConnectionTimeout", ...).   returns 0x01 (0000ms, 24323ms total)
T184C 6149:229 JLINK_GetHardwareVersion()  returns 0x18A88 (0000ms, 24323ms total)
T184C 6149:229 JLINK_GetDLLVersion()  returns 63203 (0000ms, 24323ms total)
T184C 6149:234 JLINK_GetDLLVersion()  returns 63203 (0000ms, 24323ms total)
T184C 6149:234 JLINK_GetCompileDateTime() (0000ms, 24323ms total)
T184C 6149:236 JLINK_GetFirmwareString(...) (0000ms, 24323ms total)
T184C 6149:238 JLINK_GetHardwareVersion()  returns 0x18A88 (0000ms, 24323ms total)
T184C 6149:249 JLINK_TIF_Select(JLINKARM_TIF_SWD)  returns 0x00 (0001ms, 24324ms total)
T184C 6149:250 JLINK_SetSpeed(500) (0000ms, 24324ms total)
T184C 6149:250 JLINK_GetId() >0x10B TIF>Found SW-DP with ID 0x0BB11477 >0x0D TIF> >0x28 TIF> >0x0D TIF> >0x28 TIF> >0x0D TIF> >0x28 TIF> >0x0D TIF> >0x28 TIF> >0x0D TIF> >0x21 TIF> >0x0D TIF> >0x28 TIF> >0x0D TIF> >0x28 TIF> >0x0D TIF> >0x28 TIF> >0x0D TIF> >0x21 TIF> >0x0D TIF> >0x21 TIF> >0x0D TIF> >0x28 TIF> >0x0D TIF> >0x21 TIF> >0x0D TIF> >0x21 TIF> >0x0D TIF> >0x28 TIF> >0x0D TIF> >0x21 TIF> >0x0D TIF> >0x21 TIF> >0x0D TIF> >0x28 TIF> >0x0D TIF> >0x28 TIF> >0x0D TIF> >0x28 TIF> >0x0D TIF>
 >0x21 TIF> >0x0D TIF> >0x21 TIF> >0x0D TIF> >0x28 TIF> >0x0D TIF> >0x28 TIF> >0x0D TIF> >0x28 TIF> >0x0D TIF> >0x21 TIF> >0x0D TIF> >0x21 TIF> >0x0D TIF> >0x28 TIF> >0x0D TIF> >0x28 TIF> >0x0D TIF> >0x28 TIF> >0x0D TIF> >0x21 TIF> >0x0D TIF> >0x21 TIF> >0x0D TIF> >0x28 TIF> >0x0D TIF> >0x21 TIF> >0x0D TIF> >0x21 TIF> >0x0D TIF> >0x28 TIF> >0x0D TIF> >0x21 TIF> >0x0D TIF> >0x21 TIF> >0x0D TIF> >0x28 TIF> >0x0D TIF> >0x21 TIF> >0x0D TIF> >0x21 TIF> >0x0D TIF> >0x28 TIF> >0x0D TIF> >0x21 TIF> >0x0D TIF>
 >0x21 TIF> >0x10B TIF>Found SW-DP with ID 0x0BB11477 >0x0D TIF> >0x28 TIF> >0x0D TIF> >0x28 TIF> >0x0D TIF> >0x28 TIF> >0x0D TIF> >0x28 TIF> >0x0D TIF> >0x21 TIF> >0x0D TIF> >0x28 TIF>Scanning AP map to find all available APs >0x0D TIF> >0x28 TIF> >0x0D TIF> >0x21 TIF> >0x0D TIF> >0x21 TIF> >0x0D TIF> >0x28 TIF> >0x0D TIF> >0x21 TIF> >0x0D TIF> >0x21 TIF>AP[1]: Stopped AP scan as end of AP map has been reachedAP[0]: AHB-AP (IDR: 0x04770021)Iterating through AP map to find AHB-AP to use >0x42 TIF>
 >0x28 TIF> >0x0D TIF> >0x28 TIF> >0x0D TIF> >0x21 TIF> >0x0D TIF> >0x21 TIF> >0x42 TIF> >0x28 TIF> >0x0D TIF> >0x28 TIF> >0x0D TIF> >0x28 TIF> >0x0D TIF> >0x21 TIF> >0x0D TIF> >0x21 TIF>AP[0]: Core foundAP[0]: AHB-AP ROM base: 0xE00FF000 >0x0D TIF> >0x28 TIF> >0x0D TIF> >0x28 TIF> >0x0D TIF> >0x28 TIF> >0x0D TIF> >0x21 TIF> >0x0D TIF> >0x21 TIF>CPUID register: 0x410CC200. Implementer code: 0x41 (ARM)Found Cortex-M0 r0p0, Little endian. -- CPU_ReadMem(4 bytes @ 0xE000EDF0)
 -- CPU_WriteMem(4 bytes @ 0xE000EDF0) -- CPU_ReadMem(4 bytes @ 0xE0002000)FPUnit: 4 code (BP) slots and 0 literal slots -- CPU_ReadMem(4 bytes @ 0xE000EDFC) -- CPU_WriteMem(4 bytes @ 0xE000EDFC) -- CPU_ReadMem(4 bytes @ 0xE0001000) -- CPU_WriteMem(4 bytes @ 0xE0001000)CoreSight components:ROMTbl[0] @ E00FF000 -- CPU_ReadMem(16 bytes @ 0xE00FF000) -- CPU_ReadMem(16 bytes @ 0xE000EFF0) -- CPU_ReadMem(16 bytes @ 0xE000EFE0)ROMTbl[0][0]: E000E000, CID: B105E00D, PID: 000BB008 SCS
 -- CPU_ReadMem(16 bytes @ 0xE0001FF0) -- CPU_ReadMem(16 bytes @ 0xE0001FE0)ROMTbl[0][1]: E0001000, CID: B105E00D, PID: 000BB00A DWT -- CPU_ReadMem(16 bytes @ 0xE0002FF0) -- CPU_ReadMem(16 bytes @ 0xE0002FE0)ROMTbl[0][2]: E0002000, CID: B105E00D, PID: 000BB00B FPB >0x0D TIF> >0x21 TIF>  returns 0x0BB11477 (0189ms, 24513ms total)
T184C 6149:439 JLINK_GetDLLVersion()  returns 63203 (0000ms, 24513ms total)
T184C 6149:439 JLINK_CORE_GetFound()  returns 0x60000FF (0000ms, 24513ms total)
T184C 6149:439 JLINK_GetDebugInfo(0x100 = JLINKARM_ROM_TABLE_ADDR_INDEX) -- Value=0xE00FF000  returns 0x00 (0000ms, 24513ms total)
T184C 6149:441 JLINK_GetDebugInfo(0x100 = JLINKARM_ROM_TABLE_ADDR_INDEX) -- Value=0xE00FF000  returns 0x00 (0000ms, 24513ms total)
T184C 6149:441 JLINK_GetDebugInfo(0x101 = JLINKARM_DEBUG_INFO_ETM_ADDR_INDEX) -- Value=0x00000000  returns 0x00 (0000ms, 24513ms total)
T184C 6149:441 JLINK_ReadMemEx(0xE0041FF0, 0x0010 Bytes, ..., Flags = 0x02000004) -- CPU_ReadMem(16 bytes @ 0xE0041FF0) - Data: 00 00 00 00 00 00 00 00 00 00 00 00 00 00 00 00  returns 0x10 (0002ms, 24515ms total)
T184C 6149:443 JLINK_GetDebugInfo(0x102 = JLINKARM_DEBUG_INFO_MTB_ADDR_INDEX) -- Value=0x00000000  returns 0x00 (0000ms, 24515ms total)
T184C 6149:443 JLINK_GetDebugInfo(0x103 = JLINKARM_DEBUG_INFO_TPIU_ADDR_INDEX) -- Value=0x00000000  returns 0x00 (0000ms, 24515ms total)
T184C 6149:443 JLINK_ReadMemEx(0xE0040FF0, 0x0010 Bytes, ..., Flags = 0x02000004) -- CPU_ReadMem(16 bytes @ 0xE0040FF0) - Data: 00 00 00 00 00 00 00 00 00 00 00 00 00 00 00 00  returns 0x10 (0001ms, 24516ms total)
T184C 6149:444 JLINK_GetDebugInfo(0x104 = JLINKARM_DEBUG_INFO_ITM_ADDR_INDEX) -- Value=0xE0000000  returns 0x00 (0000ms, 24516ms total)
T184C 6149:444 JLINK_GetDebugInfo(0x105 = JLINKARM_DEBUG_INFO_DWT_ADDR_INDEX) -- Value=0xE0001000  returns 0x00 (0000ms, 24516ms total)
T184C 6149:444 JLINK_GetDebugInfo(0x106 = JLINKARM_DEBUG_INFO_FPB_ADDR_INDEX) -- Value=0xE0002000  returns 0x00 (0000ms, 24516ms total)
T184C 6149:444 JLINK_GetDebugInfo(0x107 = JLINKARM_DEBUG_INFO_NVIC_ADDR_INDEX) -- Value=0xE000E000  returns 0x00 (0000ms, 24516ms total)
T184C 6149:444 JLINK_GetDebugInfo(0x10C = JLINKARM_DEBUG_INFO_DBG_ADDR_INDEX) -- Value=0xE000EDF0  returns 0x00 (0000ms, 24516ms total)
T184C 6149:444 JLINK_GetDebugInfo(0x01 = Unknown) -- Value=0x00000000  returns 0x00 (0000ms, 24516ms total)
T184C 6149:444 JLINK_ReadMemU32(0xE000ED00, 0x0001 Items, ...) -- CPU_ReadMem(4 bytes @ 0xE000ED00) - Data: 00 C2 0C 41  returns 0x01 (0001ms, 24517ms total)
T184C 6149:445 JLINK_GetDebugInfo(0x10F = JLINKARM_DEBUG_INFO_HAS_CORTEX_M_SECURITY_EXT_INDEX) -- Value=0x00000000  returns 0x00 (0000ms, 24517ms total)
T184C 6149:445 JLINK_SetResetType(JLINKARM_CM3_RESET_TYPE_NORMAL)  returns JLINKARM_CM3_RESET_TYPE_NORMAL (0000ms, 24517ms total)
T184C 6149:445 JLINK_Reset() -- CPU is running -- CPU_WriteMem(4 bytes @ 0xE000EDF0) -- CPU is running -- CPU_WriteMem(4 bytes @ 0xE000EDFC)Reset: Halt core after reset via DEMCR.VC_CORERESET. >0x35 TIF>Reset: Reset device via AIRCR.SYSRESETREQ. -- CPU is running -- CPU_WriteMem(4 bytes @ 0xE000ED0C) >0x0D TIF> >0x28 TIF> -- CPU_ReadMem(4 bytes @ 0xE000EDF0) -- CPU_ReadMem(4 bytes @ 0xE000EDF0) -- CPU is running -- CPU_WriteMem(4 bytes @ 0xE000EDF0) -- CPU is running -- CPU_WriteMem(4 bytes @ 0xE000EDFC)
 -- CPU_ReadMem(4 bytes @ 0xE000EDF0) -- CPU_WriteMem(4 bytes @ 0xE0002000) -- CPU_ReadMem(4 bytes @ 0xE000EDFC) -- CPU_ReadMem(4 bytes @ 0xE0001000) -- CPU_WriteMem(4 bytes @ 0xE0001000) (0086ms, 24603ms total)
T184C 6149:531 JLINK_Halt()  returns 0x00 (0000ms, 24603ms total)
T184C 6149:531 JLINK_ReadMemU32(0xE000EDF0, 0x0001 Items, ...) -- CPU_ReadMem(4 bytes @ 0xE000EDF0) - Data: 03 00 03 00  returns 0x01 (0002ms, 24605ms total)
T184C 6149:533 JLINK_WriteU32(0xE000EDF0, 0xA05F0003) -- CPU_WriteMem(4 bytes @ 0xE000EDF0)  returns 0x00 (0000ms, 24605ms total)
T184C 6149:533 JLINK_WriteU32(0xE000EDFC, 0x01000000) -- CPU_WriteMem(4 bytes @ 0xE000EDFC)  returns 0x00 (0002ms, 24607ms total)
T184C 6149:549 JLINK_GetHWStatus(...)  returns 0x00 (0000ms, 24607ms total)
T184C 6149:558 JLINK_GetNumBPUnits(Type = 0xFFFFFF00)  returns 0x04 (0000ms, 24607ms total)
T184C 6149:558 JLINK_GetNumBPUnits(Type = 0xF0)  returns 0x2000 (0000ms, 24607ms total)
T184C 6149:558 JLINK_GetNumWPUnits()  returns 0x02 (0000ms, 24607ms total)
T184C 6149:566 JLINK_GetSpeed()  returns 0x1F4 (0000ms, 24607ms total)
T184C 6149:571 JLINK_ReadMemU32(0xE000E004, 0x0001 Items, ...) -- CPU_ReadMem(4 bytes @ 0xE000E004) - Data: 00 00 00 00  returns 0x01 (0002ms, 24609ms total)
T184C 6149:573 JLINK_Halt()  returns 0x00 (0000ms, 24609ms total)
T184C 6149:573 JLINK_IsHalted()  returns TRUE (0000ms, 24609ms total)
T184C 6149:575 JLINK_WriteMem(0x20000000, 0x0170 Bytes, ...) - Data: 00 BE 0A E0 0D 78 2D 06 68 40 08 24 40 00 00 D3 ... -- CPU_WriteMem(368 bytes @ 0x20000000)  returns 0x170 (0012ms, 24621ms total)
T184C 6149:587 JLINK_WriteReg(R0, 0x08000000)  returns 0x00 (0000ms, 24621ms total)
T184C 6149:587 JLINK_WriteReg(R1, 0x00B71B00)  returns 0x00 (0000ms, 24621ms total)
T184C 6149:587 JLINK_WriteReg(R2, 0x00000001)  returns 0x00 (0000ms, 24621ms total)
T184C 6149:587 JLINK_WriteReg(R3, 0x00000000)  returns 0x00 (0000ms, 24621ms total)
T184C 6149:587 JLINK_WriteReg(R4, 0x00000000)  returns 0x00 (0000ms, 24621ms total)
T184C 6149:587 JLINK_WriteReg(R5, 0x00000000)  returns 0x00 (0000ms, 24621ms total)
T184C 6149:587 JLINK_WriteReg(R6, 0x00000000)  returns 0x00 (0000ms, 24621ms total)
T184C 6149:587 JLINK_WriteReg(R7, 0x00000000)  returns 0x00 (0000ms, 24621ms total)
T184C 6149:587 JLINK_WriteReg(R8, 0x00000000)  returns 0x00 (0000ms, 24621ms total)
T184C 6149:587 JLINK_WriteReg(R9, 0x2000016C)  returns 0x00 (0000ms, 24621ms total)
T184C 6149:587 JLINK_WriteReg(R10, 0x00000000)  returns 0x00 (0000ms, 24621ms total)
T184C 6149:587 JLINK_WriteReg(R11, 0x00000000)  returns 0x00 (0000ms, 24621ms total)
T184C 6149:587 JLINK_WriteReg(R12, 0x00000000)  returns 0x00 (0000ms, 24621ms total)
T184C 6149:587 JLINK_WriteReg(R13 (SP), 0x20001000)  returns 0x00 (0000ms, 24621ms total)
T184C 6149:587 JLINK_WriteReg(R14, 0x20000001)  returns 0x00 (0000ms, 24621ms total)
T184C 6149:587 JLINK_WriteReg(R15 (PC), 0x20000038)  returns 0x00 (0000ms, 24621ms total)
T184C 6149:587 JLINK_WriteReg(XPSR, 0x01000000)  returns 0x00 (0000ms, 24621ms total)
T184C 6149:587 JLINK_WriteReg(MSP, 0x20001000)  returns 0x00 (0000ms, 24621ms total)
T184C 6149:587 JLINK_WriteReg(PSP, 0x20001000)  returns 0x00 (0000ms, 24621ms total)
T184C 6149:587 JLINK_WriteReg(CFBP, 0x00000000)  returns 0x00 (0000ms, 24621ms total)
T184C 6149:587 JLINK_SetBPEx(Addr = 0x20000000, Type = 0xFFFFFFF2) -- CPU_ReadMem(2 bytes @ 0x20000000)  returns 0x00000001 (0001ms, 24622ms total)
T184C 6149:588 JLINK_Go() -- CPU_WriteMem(2 bytes @ 0x20000000) -- CPU_ReadMem(4 bytes @ 0xE0001000) -- CPU_WriteMem(4 bytes @ 0xE0001000) -- CPU_WriteMem(4 bytes @ 0xE0002008) -- CPU_WriteMem(4 bytes @ 0xE000200C) -- CPU_WriteMem(4 bytes @ 0xE0002010) -- CPU_WriteMem(4 bytes @ 0xE0002014) -- CPU_WriteMem(4 bytes @ 0xE0001004) (0016ms, 24638ms total)
T184C 6149:604 JLINK_IsHalted() -- CPU_ReadMem(2 bytes @ 0x20000000)  returns TRUE (0013ms, 24651ms total)
T184C 6149:617 JLINK_ReadReg(R15 (PC))  returns 0x20000000 (0000ms, 24638ms total)
T184C 6149:617 JLINK_ClrBPEx(BPHandle = 0x00000001)  returns 0x00 (0000ms, 24638ms total)
T184C 6149:617 JLINK_ReadReg(R0)  returns 0x00000000 (0000ms, 24638ms total)
T184C 6149:617 JLINK_WriteReg(R0, 0x08000000)  returns 0x00 (0000ms, 24638ms total)
T184C 6149:617 JLINK_WriteReg(R1, 0x00000400)  returns 0x00 (0000ms, 24638ms total)
T184C 6149:617 JLINK_WriteReg(R2, 0x000000FF)  returns 0x00 (0000ms, 24638ms total)
T184C 6149:618 JLINK_WriteReg(R3, 0x00000000)  returns 0x00 (0000ms, 24638ms total)
T184C 6149:618 JLINK_WriteReg(R4, 0x00000000)  returns 0x00 (0000ms, 24638ms total)
T184C 6149:618 JLINK_WriteReg(R5, 0x00000000)  returns 0x00 (0000ms, 24638ms total)
T184C 6149:618 JLINK_WriteReg(R6, 0x00000000)  returns 0x00 (0000ms, 24638ms total)
T184C 6149:618 JLINK_WriteReg(R7, 0x00000000)  returns 0x00 (0000ms, 24638ms total)
T184C 6149:618 JLINK_WriteReg(R8, 0x00000000)  returns 0x00 (0000ms, 24638ms total)
T184C 6149:618 JLINK_WriteReg(R9, 0x2000016C)  returns 0x00 (0000ms, 24638ms total)
T184C 6149:618 JLINK_WriteReg(R10, 0x00000000)  returns 0x00 (0000ms, 24638ms total)
T184C 6149:618 JLINK_WriteReg(R11, 0x00000000)  returns 0x00 (0000ms, 24638ms total)
T184C 6149:618 JLINK_WriteReg(R12, 0x00000000)  returns 0x00 (0000ms, 24638ms total)
T184C 6149:618 JLINK_WriteReg(R13 (SP), 0x20001000)  returns 0x00 (0000ms, 24638ms total)
T184C 6149:618 JLINK_WriteReg(R14, 0x20000001)  returns 0x00 (0000ms, 24638ms total)
T184C 6149:618 JLINK_WriteReg(R15 (PC), 0x20000020)  returns 0x00 (0000ms, 24638ms total)
T184C 6149:618 JLINK_WriteReg(XPSR, 0x01000000)  returns 0x00 (0000ms, 24638ms total)
T184C 6149:618 JLINK_WriteReg(MSP, 0x20001000)  returns 0x00 (0000ms, 24638ms total)
T184C 6149:618 JLINK_WriteReg(PSP, 0x20001000)  returns 0x00 (0000ms, 24638ms total)
T184C 6149:618 JLINK_WriteReg(CFBP, 0x00000000)  returns 0x00 (0000ms, 24638ms total)
T184C 6149:618 JLINK_SetBPEx(Addr = 0x20000000, Type = 0xFFFFFFF2)  returns 0x00000002 (0000ms, 24638ms total)
T184C 6149:618 JLINK_Go() -- CPU_ReadMem(4 bytes @ 0xE0001000) -- CPU_WriteMem(4 bytes @ 0xE0001000) (0007ms, 24645ms total)
T184C 6149:625 JLINK_IsHalted() -- CPU_ReadMem(2 bytes @ 0x20000000)  returns TRUE (0013ms, 24658ms total)
T184C 6149:638 JLINK_ReadReg(R15 (PC))  returns 0x20000000 (0000ms, 24645ms total)
T184C 6149:638 JLINK_ClrBPEx(BPHandle = 0x00000002)  returns 0x00 (0000ms, 24645ms total)
T184C 6149:638 JLINK_ReadReg(R0)  returns 0x00000001 (0000ms, 24645ms total)
T184C 6149:638 JLINK_WriteReg(R0, 0x08000000)  returns 0x00 (0000ms, 24645ms total)
T184C 6149:638 JLINK_WriteReg(R1, 0x00000400)  returns 0x00 (0000ms, 24645ms total)
T184C 6149:638 JLINK_WriteReg(R2, 0x000000FF)  returns 0x00 (0000ms, 24645ms total)
T184C 6149:638 JLINK_WriteReg(R3, 0x00000000)  returns 0x00 (0000ms, 24645ms total)
T184C 6149:638 JLINK_WriteReg(R4, 0x00000000)  returns 0x00 (0000ms, 24645ms total)
T184C 6149:638 JLINK_WriteReg(R5, 0x00000000)  returns 0x00 (0000ms, 24645ms total)
T184C 6149:638 JLINK_WriteReg(R6, 0x00000000)  returns 0x00 (0000ms, 24645ms total)
T184C 6149:638 JLINK_WriteReg(R7, 0x00000000)  returns 0x00 (0000ms, 24645ms total)
T184C 6149:638 JLINK_WriteReg(R8, 0x00000000)  returns 0x00 (0000ms, 24645ms total)
T184C 6149:638 JLINK_WriteReg(R9, 0x2000016C)  returns 0x00 (0000ms, 24645ms total)
T184C 6149:638 JLINK_WriteReg(R10, 0x00000000)  returns 0x00 (0000ms, 24645ms total)
T184C 6149:639 JLINK_WriteReg(R11, 0x00000000)  returns 0x00 (0000ms, 24646ms total)
T184C 6149:639 JLINK_WriteReg(R12, 0x00000000)  returns 0x00 (0000ms, 24646ms total)
T184C 6149:639 JLINK_WriteReg(R13 (SP), 0x20001000)  returns 0x00 (0000ms, 24646ms total)
T184C 6149:639 JLINK_WriteReg(R14, 0x20000001)  returns 0x00 (0000ms, 24646ms total)
T184C 6149:639 JLINK_WriteReg(R15 (PC), 0x200000B8)  returns 0x00 (0000ms, 24646ms total)
T184C 6149:639 JLINK_WriteReg(XPSR, 0x01000000)  returns 0x00 (0000ms, 24646ms total)
T184C 6149:639 JLINK_WriteReg(MSP, 0x20001000)  returns 0x00 (0000ms, 24646ms total)
T184C 6149:639 JLINK_WriteReg(PSP, 0x20001000)  returns 0x00 (0000ms, 24646ms total)
T184C 6149:639 JLINK_WriteReg(CFBP, 0x00000000)  returns 0x00 (0000ms, 24646ms total)
T184C 6149:639 JLINK_SetBPEx(Addr = 0x20000000, Type = 0xFFFFFFF2)  returns 0x00000003 (0000ms, 24646ms total)
T184C 6149:639 JLINK_Go() -- CPU_ReadMem(4 bytes @ 0xE0001000) -- CPU_WriteMem(4 bytes @ 0xE0001000) (0007ms, 24653ms total)
T184C 6149:646 JLINK_IsHalted()  returns FALSE (0002ms, 24655ms total)
T184C 6149:687 JLINK_IsHalted() -- CPU_ReadMem(2 bytes @ 0x20000000)  returns TRUE (0012ms, 24665ms total)
T184C 6149:699 JLINK_ReadReg(R15 (PC))  returns 0x20000000 (0000ms, 24653ms total)
T184C 6149:699 JLINK_ClrBPEx(BPHandle = 0x00000003)  returns 0x00 (0000ms, 24653ms total)
T184C 6149:699 JLINK_ReadReg(R0)  returns 0x00000000 (0000ms, 24653ms total)
T184C 6149:700 JLINK_WriteReg(R0, 0x08000400)  returns 0x00 (0000ms, 24653ms total)
T184C 6149:700 JLINK_WriteReg(R1, 0x00000400)  returns 0x00 (0000ms, 24653ms total)
T184C 6149:700 JLINK_WriteReg(R2, 0x000000FF)  returns 0x00 (0000ms, 24653ms total)
T184C 6149:700 JLINK_WriteReg(R3, 0x00000000)  returns 0x00 (0000ms, 24653ms total)
T184C 6149:700 JLINK_WriteReg(R4, 0x00000000)  returns 0x00 (0000ms, 24653ms total)
T184C 6149:700 JLINK_WriteReg(R5, 0x00000000)  returns 0x00 (0000ms, 24653ms total)
T184C 6149:700 JLINK_WriteReg(R6, 0x00000000)  returns 0x00 (0000ms, 24653ms total)
T184C 6149:700 JLINK_WriteReg(R7, 0x00000000)  returns 0x00 (0000ms, 24653ms total)
T184C 6149:700 JLINK_WriteReg(R8, 0x00000000)  returns 0x00 (0000ms, 24653ms total)
T184C 6149:700 JLINK_WriteReg(R9, 0x2000016C)  returns 0x00 (0000ms, 24653ms total)
T184C 6149:700 JLINK_WriteReg(R10, 0x00000000)  returns 0x00 (0000ms, 24653ms total)
T184C 6149:700 JLINK_WriteReg(R11, 0x00000000)  returns 0x00 (0000ms, 24653ms total)
T184C 6149:700 JLINK_WriteReg(R12, 0x00000000)  returns 0x00 (0000ms, 24653ms total)
T184C 6149:700 JLINK_WriteReg(R13 (SP), 0x20001000)  returns 0x00 (0000ms, 24653ms total)
T184C 6149:700 JLINK_WriteReg(R14, 0x20000001)  returns 0x00 (0000ms, 24653ms total)
T184C 6149:700 JLINK_WriteReg(R15 (PC), 0x20000020)  returns 0x00 (0000ms, 24653ms total)
T184C 6149:700 JLINK_WriteReg(XPSR, 0x01000000)  returns 0x00 (0000ms, 24653ms total)
T184C 6149:700 JLINK_WriteReg(MSP, 0x20001000)  returns 0x00 (0000ms, 24653ms total)
T184C 6149:700 JLINK_WriteReg(PSP, 0x20001000)  returns 0x00 (0000ms, 24653ms total)
T184C 6149:700 JLINK_WriteReg(CFBP, 0x00000000)  returns 0x00 (0000ms, 24653ms total)
T184C 6149:700 JLINK_SetBPEx(Addr = 0x20000000, Type = 0xFFFFFFF2)  returns 0x00000004 (0000ms, 24653ms total)
T184C 6149:700 JLINK_Go() -- CPU_ReadMem(4 bytes @ 0xE0001000) -- CPU_WriteMem(4 bytes @ 0xE0001000) (0007ms, 24660ms total)
T184C 6149:707 JLINK_IsHalted()  returns FALSE (0001ms, 24661ms total)
T184C 6149:710 JLINK_IsHalted() -- CPU_ReadMem(2 bytes @ 0x20000000)  returns TRUE (0012ms, 24672ms total)
T184C 6149:722 JLINK_ReadReg(R15 (PC))  returns 0x20000000 (0000ms, 24660ms total)
T184C 6149:722 JLINK_ClrBPEx(BPHandle = 0x00000004)  returns 0x00 (0000ms, 24660ms total)
T184C 6149:722 JLINK_ReadReg(R0)  returns 0x00000000 (0000ms, 24660ms total)
T184C 6149:722 JLINK_WriteReg(R0, 0x08000800)  returns 0x00 (0000ms, 24660ms total)
T184C 6149:722 JLINK_WriteReg(R1, 0x00000400)  returns 0x00 (0000ms, 24660ms total)
T184C 6149:722 JLINK_WriteReg(R2, 0x000000FF)  returns 0x00 (0000ms, 24660ms total)
T184C 6149:722 JLINK_WriteReg(R3, 0x00000000)  returns 0x00 (0000ms, 24660ms total)
T184C 6149:722 JLINK_WriteReg(R4, 0x00000000)  returns 0x00 (0000ms, 24660ms total)
T184C 6149:722 JLINK_WriteReg(R5, 0x00000000)  returns 0x00 (0000ms, 24660ms total)
T184C 6149:722 JLINK_WriteReg(R6, 0x00000000)  returns 0x00 (0000ms, 24660ms total)
T184C 6149:722 JLINK_WriteReg(R7, 0x00000000)  returns 0x00 (0000ms, 24660ms total)
T184C 6149:722 JLINK_WriteReg(R8, 0x00000000)  returns 0x00 (0000ms, 24660ms total)
T184C 6149:722 JLINK_WriteReg(R9, 0x2000016C)  returns 0x00 (0000ms, 24660ms total)
T184C 6149:722 JLINK_WriteReg(R10, 0x00000000)  returns 0x00 (0000ms, 24660ms total)
T184C 6149:722 JLINK_WriteReg(R11, 0x00000000)  returns 0x00 (0000ms, 24660ms total)
T184C 6149:722 JLINK_WriteReg(R12, 0x00000000)  returns 0x00 (0000ms, 24660ms total)
T184C 6149:722 JLINK_WriteReg(R13 (SP), 0x20001000)  returns 0x00 (0000ms, 24660ms total)
T184C 6149:722 JLINK_WriteReg(R14, 0x20000001)  returns 0x00 (0000ms, 24660ms total)
T184C 6149:722 JLINK_WriteReg(R15 (PC), 0x20000020)  returns 0x00 (0000ms, 24660ms total)
T184C 6149:722 JLINK_WriteReg(XPSR, 0x01000000)  returns 0x00 (0000ms, 24660ms total)
T184C 6149:722 JLINK_WriteReg(MSP, 0x20001000)  returns 0x00 (0000ms, 24660ms total)
T184C 6149:722 JLINK_WriteReg(PSP, 0x20001000)  returns 0x00 (0000ms, 24660ms total)
T184C 6149:722 JLINK_WriteReg(CFBP, 0x00000000)  returns 0x00 (0000ms, 24660ms total)
T184C 6149:722 JLINK_SetBPEx(Addr = 0x20000000, Type = 0xFFFFFFF2)  returns 0x00000005 (0000ms, 24660ms total)
T184C 6149:722 JLINK_Go() -- CPU_ReadMem(4 bytes @ 0xE0001000) -- CPU_WriteMem(4 bytes @ 0xE0001000) (0007ms, 24667ms total)
T184C 6149:729 JLINK_IsHalted() -- CPU_ReadMem(2 bytes @ 0x20000000)  returns TRUE (0014ms, 24681ms total)
T184C 6149:743 JLINK_ReadReg(R15 (PC))  returns 0x20000000 (0000ms, 24667ms total)
T184C 6149:743 JLINK_ClrBPEx(BPHandle = 0x00000005)  returns 0x00 (0000ms, 24667ms total)
T184C 6149:743 JLINK_ReadReg(R0)  returns 0x00000001 (0000ms, 24667ms total)
T184C 6149:743 JLINK_WriteReg(R0, 0x08000800)  returns 0x00 (0000ms, 24667ms total)
T184C 6149:743 JLINK_WriteReg(R1, 0x00000400)  returns 0x00 (0000ms, 24667ms total)
T184C 6149:743 JLINK_WriteReg(R2, 0x000000FF)  returns 0x00 (0000ms, 24667ms total)
T184C 6149:743 JLINK_WriteReg(R3, 0x00000000)  returns 0x00 (0000ms, 24667ms total)
T184C 6149:743 JLINK_WriteReg(R4, 0x00000000)  returns 0x00 (0000ms, 24667ms total)
T184C 6149:743 JLINK_WriteReg(R5, 0x00000000)  returns 0x00 (0000ms, 24667ms total)
T184C 6149:743 JLINK_WriteReg(R6, 0x00000000)  returns 0x00 (0000ms, 24667ms total)
T184C 6149:743 JLINK_WriteReg(R7, 0x00000000)  returns 0x00 (0000ms, 24667ms total)
T184C 6149:743 JLINK_WriteReg(R8, 0x00000000)  returns 0x00 (0000ms, 24667ms total)
T184C 6149:743 JLINK_WriteReg(R9, 0x2000016C)  returns 0x00 (0000ms, 24667ms total)
T184C 6149:743 JLINK_WriteReg(R10, 0x00000000)  returns 0x00 (0000ms, 24667ms total)
T184C 6149:743 JLINK_WriteReg(R11, 0x00000000)  returns 0x00 (0000ms, 24667ms total)
T184C 6149:743 JLINK_WriteReg(R12, 0x00000000)  returns 0x00 (0000ms, 24667ms total)
T184C 6149:743 JLINK_WriteReg(R13 (SP), 0x20001000)  returns 0x00 (0000ms, 24667ms total)
T184C 6149:743 JLINK_WriteReg(R14, 0x20000001)  returns 0x00 (0000ms, 24667ms total)
T184C 6149:743 JLINK_WriteReg(R15 (PC), 0x200000B8)  returns 0x00 (0000ms, 24667ms total)
T184C 6149:743 JLINK_WriteReg(XPSR, 0x01000000)  returns 0x00 (0000ms, 24667ms total)
T184C 6149:743 JLINK_WriteReg(MSP, 0x20001000)  returns 0x00 (0000ms, 24667ms total)
T184C 6149:743 JLINK_WriteReg(PSP, 0x20001000)  returns 0x00 (0000ms, 24667ms total)
T184C 6149:743 JLINK_WriteReg(CFBP, 0x00000000)  returns 0x00 (0000ms, 24667ms total)
T184C 6149:743 JLINK_SetBPEx(Addr = 0x20000000, Type = 0xFFFFFFF2)  returns 0x00000006 (0000ms, 24667ms total)
T184C 6149:743 JLINK_Go() -- CPU_ReadMem(4 bytes @ 0xE0001000) -- CPU_WriteMem(4 bytes @ 0xE0001000) (0006ms, 24673ms total)
T184C 6149:749 JLINK_IsHalted()  returns FALSE (0001ms, 24674ms total)
T184C 6149:756 JLINK_IsHalted()  returns FALSE (0001ms, 24674ms total)
T184C 6149:759 JLINK_IsHalted()  returns FALSE (0001ms, 24674ms total)
T184C 6149:762 JLINK_IsHalted()  returns FALSE (0001ms, 24674ms total)
T184C 6149:767 JLINK_IsHalted()  returns FALSE (0001ms, 24674ms total)
T184C 6149:770 JLINK_IsHalted()  returns FALSE (0001ms, 24674ms total)
T184C 6149:773 JLINK_IsHalted() -- CPU_ReadMem(2 bytes @ 0x20000000)  returns TRUE (0012ms, 24685ms total)
T184C 6149:785 JLINK_ReadReg(R15 (PC))  returns 0x20000000 (0000ms, 24673ms total)
T184C 6149:785 JLINK_ClrBPEx(BPHandle = 0x00000006)  returns 0x00 (0000ms, 24673ms total)
T184C 6149:785 JLINK_ReadReg(R0)  returns 0x00000000 (0000ms, 24673ms total)
T184C 6149:786 JLINK_WriteReg(R0, 0x08000C00)  returns 0x00 (0000ms, 24673ms total)
T184C 6149:787 JLINK_WriteReg(R1, 0x00000400)  returns 0x00 (0000ms, 24674ms total)
T184C 6149:787 JLINK_WriteReg(R2, 0x000000FF)  returns 0x00 (0000ms, 24674ms total)
T184C 6149:787 JLINK_WriteReg(R3, 0x00000000)  returns 0x00 (0000ms, 24674ms total)
T184C 6149:787 JLINK_WriteReg(R4, 0x00000000)  returns 0x00 (0000ms, 24674ms total)
T184C 6149:787 JLINK_WriteReg(R5, 0x00000000)  returns 0x00 (0000ms, 24674ms total)
T184C 6149:787 JLINK_WriteReg(R6, 0x00000000)  returns 0x00 (0000ms, 24674ms total)
T184C 6149:787 JLINK_WriteReg(R7, 0x00000000)  returns 0x00 (0000ms, 24674ms total)
T184C 6149:787 JLINK_WriteReg(R8, 0x00000000)  returns 0x00 (0000ms, 24674ms total)
T184C 6149:787 JLINK_WriteReg(R9, 0x2000016C)  returns 0x00 (0000ms, 24674ms total)
T184C 6149:787 JLINK_WriteReg(R10, 0x00000000)  returns 0x00 (0000ms, 24674ms total)
T184C 6149:787 JLINK_WriteReg(R11, 0x00000000)  returns 0x00 (0000ms, 24674ms total)
T184C 6149:787 JLINK_WriteReg(R12, 0x00000000)  returns 0x00 (0000ms, 24674ms total)
T184C 6149:787 JLINK_WriteReg(R13 (SP), 0x20001000)  returns 0x00 (0000ms, 24674ms total)
T184C 6149:787 JLINK_WriteReg(R14, 0x20000001)  returns 0x00 (0000ms, 24674ms total)
T184C 6149:787 JLINK_WriteReg(R15 (PC), 0x20000020)  returns 0x00 (0000ms, 24674ms total)
T184C 6149:787 JLINK_WriteReg(XPSR, 0x01000000)  returns 0x00 (0000ms, 24674ms total)
T184C 6149:787 JLINK_WriteReg(MSP, 0x20001000)  returns 0x00 (0000ms, 24674ms total)
T184C 6149:787 JLINK_WriteReg(PSP, 0x20001000)  returns 0x00 (0000ms, 24674ms total)
T184C 6149:787 JLINK_WriteReg(CFBP, 0x00000000)  returns 0x00 (0000ms, 24674ms total)
T184C 6149:787 JLINK_SetBPEx(Addr = 0x20000000, Type = 0xFFFFFFF2)  returns 0x00000007 (0001ms, 24675ms total)
T184C 6149:788 JLINK_Go() -- CPU_ReadMem(4 bytes @ 0xE0001000) -- CPU_WriteMem(4 bytes @ 0xE0001000) (0006ms, 24681ms total)
T184C 6149:795 JLINK_IsHalted()  returns FALSE (0001ms, 24683ms total)
T184C 6149:802 JLINK_IsHalted() -- CPU_ReadMem(2 bytes @ 0x20000000)  returns TRUE (0012ms, 24694ms total)
T184C 6149:814 JLINK_ReadReg(R15 (PC))  returns 0x20000000 (0000ms, 24682ms total)
T184C 6149:814 JLINK_ClrBPEx(BPHandle = 0x00000007)  returns 0x00 (0000ms, 24682ms total)
T184C 6149:814 JLINK_ReadReg(R0)  returns 0x00000000 (0000ms, 24682ms total)
T184C 6149:816 JLINK_WriteReg(R0, 0x08001000)  returns 0x00 (0000ms, 24682ms total)
T184C 6149:816 JLINK_WriteReg(R1, 0x00000400)  returns 0x00 (0000ms, 24682ms total)
T184C 6149:816 JLINK_WriteReg(R2, 0x000000FF)  returns 0x00 (0000ms, 24682ms total)
T184C 6149:816 JLINK_WriteReg(R3, 0x00000000)  returns 0x00 (0000ms, 24682ms total)
T184C 6149:816 JLINK_WriteReg(R4, 0x00000000)  returns 0x00 (0000ms, 24682ms total)
T184C 6149:816 JLINK_WriteReg(R5, 0x00000000)  returns 0x00 (0000ms, 24682ms total)
T184C 6149:816 JLINK_WriteReg(R6, 0x00000000)  returns 0x00 (0000ms, 24682ms total)
T184C 6149:816 JLINK_WriteReg(R7, 0x00000000)  returns 0x00 (0000ms, 24682ms total)
T184C 6149:816 JLINK_WriteReg(R8, 0x00000000)  returns 0x00 (0000ms, 24682ms total)
T184C 6149:816 JLINK_WriteReg(R9, 0x2000016C)  returns 0x00 (0000ms, 24682ms total)
T184C 6149:816 JLINK_WriteReg(R10, 0x00000000)  returns 0x00 (0000ms, 24682ms total)
T184C 6149:816 JLINK_WriteReg(R11, 0x00000000)  returns 0x00 (0000ms, 24682ms total)
T184C 6149:816 JLINK_WriteReg(R12, 0x00000000)  returns 0x00 (0000ms, 24682ms total)
T184C 6149:816 JLINK_WriteReg(R13 (SP), 0x20001000)  returns 0x00 (0000ms, 24682ms total)
T184C 6149:816 JLINK_WriteReg(R14, 0x20000001)  returns 0x00 (0000ms, 24682ms total)
T184C 6149:816 JLINK_WriteReg(R15 (PC), 0x20000020)  returns 0x00 (0000ms, 24682ms total)
T184C 6149:816 JLINK_WriteReg(XPSR, 0x01000000)  returns 0x00 (0000ms, 24682ms total)
T184C 6149:816 JLINK_WriteReg(MSP, 0x20001000)  returns 0x00 (0000ms, 24682ms total)
T184C 6149:817 JLINK_WriteReg(PSP, 0x20001000)  returns 0x00 (0000ms, 24683ms total)
T184C 6149:817 JLINK_WriteReg(CFBP, 0x00000000)  returns 0x00 (0000ms, 24683ms total)
T184C 6149:817 JLINK_SetBPEx(Addr = 0x20000000, Type = 0xFFFFFFF2)  returns 0x00000008 (0000ms, 24683ms total)
T184C 6149:817 JLINK_Go() -- CPU_ReadMem(4 bytes @ 0xE0001000) -- CPU_WriteMem(4 bytes @ 0xE0001000) (0007ms, 24690ms total)
T184C 6149:824 JLINK_IsHalted() -- CPU_ReadMem(2 bytes @ 0x20000000)  returns TRUE (0012ms, 24702ms total)
T184C 6149:836 JLINK_ReadReg(R15 (PC))  returns 0x20000000 (0000ms, 24690ms total)
T184C 6149:836 JLINK_ClrBPEx(BPHandle = 0x00000008)  returns 0x00 (0000ms, 24690ms total)
T184C 6149:836 JLINK_ReadReg(R0)  returns 0x00000001 (0000ms, 24690ms total)
T184C 6149:836 JLINK_WriteReg(R0, 0x08001000)  returns 0x00 (0000ms, 24690ms total)
T184C 6149:836 JLINK_WriteReg(R1, 0x00000400)  returns 0x00 (0000ms, 24690ms total)
T184C 6149:836 JLINK_WriteReg(R2, 0x000000FF)  returns 0x00 (0000ms, 24690ms total)
T184C 6149:836 JLINK_WriteReg(R3, 0x00000000)  returns 0x00 (0000ms, 24690ms total)
T184C 6149:836 JLINK_WriteReg(R4, 0x00000000)  returns 0x00 (0001ms, 24691ms total)
T184C 6149:837 JLINK_WriteReg(R5, 0x00000000)  returns 0x00 (0000ms, 24691ms total)
T184C 6149:837 JLINK_WriteReg(R6, 0x00000000)  returns 0x00 (0000ms, 24691ms total)
T184C 6149:837 JLINK_WriteReg(R7, 0x00000000)  returns 0x00 (0000ms, 24691ms total)
T184C 6149:837 JLINK_WriteReg(R8, 0x00000000)  returns 0x00 (0000ms, 24691ms total)
T184C 6149:837 JLINK_WriteReg(R9, 0x2000016C)  returns 0x00 (0000ms, 24691ms total)
T184C 6149:837 JLINK_WriteReg(R10, 0x00000000)  returns 0x00 (0000ms, 24691ms total)
T184C 6149:837 JLINK_WriteReg(R11, 0x00000000)  returns 0x00 (0000ms, 24691ms total)
T184C 6149:837 JLINK_WriteReg(R12, 0x00000000)  returns 0x00 (0000ms, 24691ms total)
T184C 6149:837 JLINK_WriteReg(R13 (SP), 0x20001000)  returns 0x00 (0000ms, 24691ms total)
T184C 6149:837 JLINK_WriteReg(R14, 0x20000001)  returns 0x00 (0000ms, 24691ms total)
T184C 6149:837 JLINK_WriteReg(R15 (PC), 0x200000B8)  returns 0x00 (0000ms, 24691ms total)
T184C 6149:837 JLINK_WriteReg(XPSR, 0x01000000)  returns 0x00 (0000ms, 24691ms total)
T184C 6149:837 JLINK_WriteReg(MSP, 0x20001000)  returns 0x00 (0000ms, 24691ms total)
T184C 6149:837 JLINK_WriteReg(PSP, 0x20001000)  returns 0x00 (0000ms, 24691ms total)
T184C 6149:837 JLINK_WriteReg(CFBP, 0x00000000)  returns 0x00 (0000ms, 24691ms total)
T184C 6149:837 JLINK_SetBPEx(Addr = 0x20000000, Type = 0xFFFFFFF2)  returns 0x00000009 (0000ms, 24691ms total)
T184C 6149:837 JLINK_Go() -- CPU_ReadMem(4 bytes @ 0xE0001000) -- CPU_WriteMem(4 bytes @ 0xE0001000) (0008ms, 24699ms total)
T184C 6149:845 JLINK_IsHalted()  returns FALSE (0001ms, 24700ms total)
T184C 6149:851 JLINK_IsHalted()  returns FALSE (0001ms, 24700ms total)
T184C 6149:854 JLINK_IsHalted()  returns FALSE (0001ms, 24700ms total)
T184C 6149:857 JLINK_IsHalted()  returns FALSE (0001ms, 24700ms total)
T184C 6149:860 JLINK_IsHalted()  returns FALSE (0001ms, 24700ms total)
T184C 6149:863 JLINK_IsHalted()  returns FALSE (0001ms, 24700ms total)
T184C 6149:866 JLINK_IsHalted()  returns FALSE (0001ms, 24700ms total)
T184C 6149:869 JLINK_IsHalted() -- CPU_ReadMem(2 bytes @ 0x20000000)  returns TRUE (0012ms, 24711ms total)
T184C 6149:881 JLINK_ReadReg(R15 (PC))  returns 0x20000000 (0000ms, 24699ms total)
T184C 6149:881 JLINK_ClrBPEx(BPHandle = 0x00000009)  returns 0x00 (0000ms, 24699ms total)
T184C 6149:881 JLINK_ReadReg(R0)  returns 0x00000000 (0000ms, 24699ms total)
T184C 6149:882 JLINK_WriteReg(R0, 0x08001400)  returns 0x00 (0000ms, 24699ms total)
T184C 6149:882 JLINK_WriteReg(R1, 0x00000400)  returns 0x00 (0000ms, 24699ms total)
T184C 6149:882 JLINK_WriteReg(R2, 0x000000FF)  returns 0x00 (0000ms, 24699ms total)
T184C 6149:882 JLINK_WriteReg(R3, 0x00000000)  returns 0x00 (0001ms, 24700ms total)
T184C 6149:883 JLINK_WriteReg(R4, 0x00000000)  returns 0x00 (0000ms, 24700ms total)
T184C 6149:883 JLINK_WriteReg(R5, 0x00000000)  returns 0x00 (0000ms, 24700ms total)
T184C 6149:883 JLINK_WriteReg(R6, 0x00000000)  returns 0x00 (0000ms, 24700ms total)
T184C 6149:883 JLINK_WriteReg(R7, 0x00000000)  returns 0x00 (0000ms, 24700ms total)
T184C 6149:883 JLINK_WriteReg(R8, 0x00000000)  returns 0x00 (0000ms, 24700ms total)
T184C 6149:883 JLINK_WriteReg(R9, 0x2000016C)  returns 0x00 (0000ms, 24700ms total)
T184C 6149:883 JLINK_WriteReg(R10, 0x00000000)  returns 0x00 (0000ms, 24700ms total)
T184C 6149:883 JLINK_WriteReg(R11, 0x00000000)  returns 0x00 (0000ms, 24700ms total)
T184C 6149:883 JLINK_WriteReg(R12, 0x00000000)  returns 0x00 (0000ms, 24700ms total)
T184C 6149:883 JLINK_WriteReg(R13 (SP), 0x20001000)  returns 0x00 (0000ms, 24700ms total)
T184C 6149:883 JLINK_WriteReg(R14, 0x20000001)  returns 0x00 (0000ms, 24700ms total)
T184C 6149:883 JLINK_WriteReg(R15 (PC), 0x20000020)  returns 0x00 (0000ms, 24700ms total)
T184C 6149:883 JLINK_WriteReg(XPSR, 0x01000000)  returns 0x00 (0000ms, 24700ms total)
T184C 6149:883 JLINK_WriteReg(MSP, 0x20001000)  returns 0x00 (0000ms, 24700ms total)
T184C 6149:883 JLINK_WriteReg(PSP, 0x20001000)  returns 0x00 (0000ms, 24700ms total)
T184C 6149:883 JLINK_WriteReg(CFBP, 0x00000000)  returns 0x00 (0000ms, 24700ms total)
T184C 6149:884 JLINK_SetBPEx(Addr = 0x20000000, Type = 0xFFFFFFF2)  returns 0x0000000A (0000ms, 24701ms total)
T184C 6149:884 JLINK_Go() -- CPU_ReadMem(4 bytes @ 0xE0001000) -- CPU_WriteMem(4 bytes @ 0xE0001000) (0007ms, 24708ms total)
T184C 6149:891 JLINK_IsHalted()  returns FALSE (0001ms, 24709ms total)
T184C 6149:894 JLINK_IsHalted() -- CPU_ReadMem(2 bytes @ 0x20000000)  returns TRUE (0012ms, 24720ms total)
T184C 6149:906 JLINK_ReadReg(R15 (PC))  returns 0x20000000 (0000ms, 24708ms total)
T184C 6149:906 JLINK_ClrBPEx(BPHandle = 0x0000000A)  returns 0x00 (0000ms, 24708ms total)
T184C 6149:906 JLINK_ReadReg(R0)  returns 0x00000000 (0000ms, 24708ms total)
T184C 6149:907 JLINK_WriteReg(R0, 0x08001800)  returns 0x00 (0000ms, 24708ms total)
T184C 6149:907 JLINK_WriteReg(R1, 0x00000400)  returns 0x00 (0000ms, 24708ms total)
T184C 6149:907 JLINK_WriteReg(R2, 0x000000FF)  returns 0x00 (0000ms, 24708ms total)
T184C 6149:907 JLINK_WriteReg(R3, 0x00000000)  returns 0x00 (0000ms, 24708ms total)
T184C 6149:907 JLINK_WriteReg(R4, 0x00000000)  returns 0x00 (0000ms, 24708ms total)
T184C 6149:907 JLINK_WriteReg(R5, 0x00000000)  returns 0x00 (0000ms, 24708ms total)
T184C 6149:907 JLINK_WriteReg(R6, 0x00000000)  returns 0x00 (0000ms, 24708ms total)
T184C 6149:907 JLINK_WriteReg(R7, 0x00000000)  returns 0x00 (0000ms, 24708ms total)
T184C 6149:907 JLINK_WriteReg(R8, 0x00000000)  returns 0x00 (0000ms, 24708ms total)
T184C 6149:907 JLINK_WriteReg(R9, 0x2000016C)  returns 0x00 (0000ms, 24708ms total)
T184C 6149:907 JLINK_WriteReg(R10, 0x00000000)  returns 0x00 (0000ms, 24708ms total)
T184C 6149:907 JLINK_WriteReg(R11, 0x00000000)  returns 0x00 (0000ms, 24708ms total)
T184C 6149:907 JLINK_WriteReg(R12, 0x00000000)  returns 0x00 (0000ms, 24708ms total)
T184C 6149:907 JLINK_WriteReg(R13 (SP), 0x20001000)  returns 0x00 (0000ms, 24708ms total)
T184C 6149:907 JLINK_WriteReg(R14, 0x20000001)  returns 0x00 (0000ms, 24708ms total)
T184C 6149:907 JLINK_WriteReg(R15 (PC), 0x20000020)  returns 0x00 (0000ms, 24708ms total)
T184C 6149:907 JLINK_WriteReg(XPSR, 0x01000000)  returns 0x00 (0000ms, 24708ms total)
T184C 6149:907 JLINK_WriteReg(MSP, 0x20001000)  returns 0x00 (0000ms, 24708ms total)
T184C 6149:907 JLINK_WriteReg(PSP, 0x20001000)  returns 0x00 (0000ms, 24708ms total)
T184C 6149:907 JLINK_WriteReg(CFBP, 0x00000000)  returns 0x00 (0000ms, 24708ms total)
T184C 6149:907 JLINK_SetBPEx(Addr = 0x20000000, Type = 0xFFFFFFF2)  returns 0x0000000B (0000ms, 24708ms total)
T184C 6149:907 JLINK_Go() -- CPU_ReadMem(4 bytes @ 0xE0001000) -- CPU_WriteMem(4 bytes @ 0xE0001000) (0006ms, 24714ms total)
T184C 6149:913 JLINK_IsHalted() -- CPU_ReadMem(2 bytes @ 0x20000000)  returns TRUE (0012ms, 24726ms total)
T184C 6149:925 JLINK_ReadReg(R15 (PC))  returns 0x20000000 (0000ms, 24714ms total)
T184C 6149:925 JLINK_ClrBPEx(BPHandle = 0x0000000B)  returns 0x00 (0000ms, 24714ms total)
T184C 6149:925 JLINK_ReadReg(R0)  returns 0x00000001 (0000ms, 24714ms total)
T184C 6149:925 JLINK_WriteReg(R0, 0x08001800)  returns 0x00 (0000ms, 24714ms total)
T184C 6149:925 JLINK_WriteReg(R1, 0x00000400)  returns 0x00 (0000ms, 24714ms total)
T184C 6149:925 JLINK_WriteReg(R2, 0x000000FF)  returns 0x00 (0000ms, 24714ms total)
T184C 6149:925 JLINK_WriteReg(R3, 0x00000000)  returns 0x00 (0000ms, 24714ms total)
T184C 6149:925 JLINK_WriteReg(R4, 0x00000000)  returns 0x00 (0000ms, 24714ms total)
T184C 6149:925 JLINK_WriteReg(R5, 0x00000000)  returns 0x00 (0000ms, 24714ms total)
T184C 6149:925 JLINK_WriteReg(R6, 0x00000000)  returns 0x00 (0000ms, 24714ms total)
T184C 6149:925 JLINK_WriteReg(R7, 0x00000000)  returns 0x00 (0000ms, 24714ms total)
T184C 6149:925 JLINK_WriteReg(R8, 0x00000000)  returns 0x00 (0000ms, 24714ms total)
T184C 6149:925 JLINK_WriteReg(R9, 0x2000016C)  returns 0x00 (0000ms, 24714ms total)
T184C 6149:925 JLINK_WriteReg(R10, 0x00000000)  returns 0x00 (0000ms, 24714ms total)
T184C 6149:925 JLINK_WriteReg(R11, 0x00000000)  returns 0x00 (0000ms, 24714ms total)
T184C 6149:925 JLINK_WriteReg(R12, 0x00000000)  returns 0x00 (0000ms, 24714ms total)
T184C 6149:925 JLINK_WriteReg(R13 (SP), 0x20001000)  returns 0x00 (0000ms, 24714ms total)
T184C 6149:925 JLINK_WriteReg(R14, 0x20000001)  returns 0x00 (0000ms, 24714ms total)
T184C 6149:925 JLINK_WriteReg(R15 (PC), 0x200000B8)  returns 0x00 (0000ms, 24714ms total)
T184C 6149:925 JLINK_WriteReg(XPSR, 0x01000000)  returns 0x00 (0000ms, 24714ms total)
T184C 6149:925 JLINK_WriteReg(MSP, 0x20001000)  returns 0x00 (0000ms, 24714ms total)
T184C 6149:925 JLINK_WriteReg(PSP, 0x20001000)  returns 0x00 (0000ms, 24714ms total)
T184C 6149:925 JLINK_WriteReg(CFBP, 0x00000000)  returns 0x00 (0000ms, 24714ms total)
T184C 6149:925 JLINK_SetBPEx(Addr = 0x20000000, Type = 0xFFFFFFF2)  returns 0x0000000C (0000ms, 24714ms total)
T184C 6149:925 JLINK_Go() -- CPU_ReadMem(4 bytes @ 0xE0001000) -- CPU_WriteMem(4 bytes @ 0xE0001000) (0006ms, 24720ms total)
T184C 6149:932 JLINK_IsHalted()  returns FALSE (0001ms, 24721ms total)
T184C 6149:936 JLINK_IsHalted()  returns FALSE (0001ms, 24721ms total)
T184C 6149:939 JLINK_IsHalted()  returns FALSE (0001ms, 24721ms total)
T184C 6149:942 JLINK_IsHalted()  returns FALSE (0001ms, 24721ms total)
T184C 6149:945 JLINK_IsHalted()  returns FALSE (0001ms, 24721ms total)
T184C 6149:948 JLINK_IsHalted()  returns FALSE (0001ms, 24721ms total)
T184C 6149:951 JLINK_IsHalted()  returns FALSE (0001ms, 24721ms total)
T184C 6149:954 JLINK_IsHalted() -- CPU_ReadMem(2 bytes @ 0x20000000)  returns TRUE (0012ms, 24732ms total)
T184C 6149:966 JLINK_ReadReg(R15 (PC))  returns 0x20000000 (0000ms, 24720ms total)
T184C 6149:966 JLINK_ClrBPEx(BPHandle = 0x0000000C)  returns 0x00 (0000ms, 24720ms total)
T184C 6149:966 JLINK_ReadReg(R0)  returns 0x00000000 (0000ms, 24720ms total)
T184C 6149:967 JLINK_WriteReg(R0, 0x08001C00)  returns 0x00 (0000ms, 24720ms total)
T184C 6149:967 JLINK_WriteReg(R1, 0x00000400)  returns 0x00 (0000ms, 24720ms total)
T184C 6149:967 JLINK_WriteReg(R2, 0x000000FF)  returns 0x00 (0000ms, 24720ms total)
T184C 6149:967 JLINK_WriteReg(R3, 0x00000000)  returns 0x00 (0000ms, 24720ms total)
T184C 6149:967 JLINK_WriteReg(R4, 0x00000000)  returns 0x00 (0000ms, 24720ms total)
T184C 6149:967 JLINK_WriteReg(R5, 0x00000000)  returns 0x00 (0000ms, 24720ms total)
T184C 6149:967 JLINK_WriteReg(R6, 0x00000000)  returns 0x00 (0000ms, 24720ms total)
T184C 6149:967 JLINK_WriteReg(R7, 0x00000000)  returns 0x00 (0000ms, 24720ms total)
T184C 6149:968 JLINK_WriteReg(R8, 0x00000000)  returns 0x00 (0000ms, 24720ms total)
T184C 6149:968 JLINK_WriteReg(R9, 0x2000016C)  returns 0x00 (0000ms, 24720ms total)
T184C 6149:968 JLINK_WriteReg(R10, 0x00000000)  returns 0x00 (0000ms, 24720ms total)
T184C 6149:968 JLINK_WriteReg(R11, 0x00000000)  returns 0x00 (0000ms, 24720ms total)
T184C 6149:968 JLINK_WriteReg(R12, 0x00000000)  returns 0x00 (0000ms, 24720ms total)
T184C 6149:968 JLINK_WriteReg(R13 (SP), 0x20001000)  returns 0x00 (0000ms, 24720ms total)
T184C 6149:968 JLINK_WriteReg(R14, 0x20000001)  returns 0x00 (0000ms, 24720ms total)
T184C 6149:968 JLINK_WriteReg(R15 (PC), 0x20000020)  returns 0x00 (0000ms, 24720ms total)
T184C 6149:968 JLINK_WriteReg(XPSR, 0x01000000)  returns 0x00 (0000ms, 24720ms total)
T184C 6149:968 JLINK_WriteReg(MSP, 0x20001000)  returns 0x00 (0000ms, 24720ms total)
T184C 6149:968 JLINK_WriteReg(PSP, 0x20001000)  returns 0x00 (0000ms, 24720ms total)
T184C 6149:968 JLINK_WriteReg(CFBP, 0x00000000)  returns 0x00 (0000ms, 24720ms total)
T184C 6149:968 JLINK_SetBPEx(Addr = 0x20000000, Type = 0xFFFFFFF2)  returns 0x0000000D (0000ms, 24720ms total)
T184C 6149:968 JLINK_Go() -- CPU_ReadMem(4 bytes @ 0xE0001000) -- CPU_WriteMem(4 bytes @ 0xE0001000) (0007ms, 24727ms total)
T184C 6149:975 JLINK_IsHalted()  returns FALSE (0002ms, 24729ms total)
T184C 6149:979 JLINK_IsHalted() -- CPU_ReadMem(2 bytes @ 0x20000000)  returns TRUE (0012ms, 24739ms total)
T184C 6149:991 JLINK_ReadReg(R15 (PC))  returns 0x20000000 (0000ms, 24727ms total)
T184C 6149:991 JLINK_ClrBPEx(BPHandle = 0x0000000D)  returns 0x00 (0000ms, 24727ms total)
T184C 6149:991 JLINK_ReadReg(R0)  returns 0x00000000 (0000ms, 24727ms total)
T184C 6149:992 JLINK_WriteReg(R0, 0x08002000)  returns 0x00 (0000ms, 24727ms total)
T184C 6149:992 JLINK_WriteReg(R1, 0x00000400)  returns 0x00 (0000ms, 24727ms total)
T184C 6149:992 JLINK_WriteReg(R2, 0x000000FF)  returns 0x00 (0000ms, 24727ms total)
T184C 6149:992 JLINK_WriteReg(R3, 0x00000000)  returns 0x00 (0000ms, 24727ms total)
T184C 6149:992 JLINK_WriteReg(R4, 0x00000000)  returns 0x00 (0000ms, 24727ms total)
T184C 6149:992 JLINK_WriteReg(R5, 0x00000000)  returns 0x00 (0000ms, 24727ms total)
T184C 6149:992 JLINK_WriteReg(R6, 0x00000000)  returns 0x00 (0000ms, 24727ms total)
T184C 6149:992 JLINK_WriteReg(R7, 0x00000000)  returns 0x00 (0000ms, 24727ms total)
T184C 6149:992 JLINK_WriteReg(R8, 0x00000000)  returns 0x00 (0000ms, 24727ms total)
T184C 6149:992 JLINK_WriteReg(R9, 0x2000016C)  returns 0x00 (0000ms, 24727ms total)
T184C 6149:992 JLINK_WriteReg(R10, 0x00000000)  returns 0x00 (0001ms, 24728ms total)
T184C 6149:993 JLINK_WriteReg(R11, 0x00000000)  returns 0x00 (0000ms, 24728ms total)
T184C 6149:993 JLINK_WriteReg(R12, 0x00000000)  returns 0x00 (0000ms, 24728ms total)
T184C 6149:993 JLINK_WriteReg(R13 (SP), 0x20001000)  returns 0x00 (0000ms, 24728ms total)
T184C 6149:993 JLINK_WriteReg(R14, 0x20000001)  returns 0x00 (0000ms, 24728ms total)
T184C 6149:993 JLINK_WriteReg(R15 (PC), 0x20000020)  returns 0x00 (0000ms, 24728ms total)
T184C 6149:993 JLINK_WriteReg(XPSR, 0x01000000)  returns 0x00 (0000ms, 24728ms total)
T184C 6149:993 JLINK_WriteReg(MSP, 0x20001000)  returns 0x00 (0000ms, 24728ms total)
T184C 6149:993 JLINK_WriteReg(PSP, 0x20001000)  returns 0x00 (0000ms, 24728ms total)
T184C 6149:993 JLINK_WriteReg(CFBP, 0x00000000)  returns 0x00 (0000ms, 24728ms total)
T184C 6149:993 JLINK_SetBPEx(Addr = 0x20000000, Type = 0xFFFFFFF2)  returns 0x0000000E (0000ms, 24728ms total)
T184C 6149:993 JLINK_Go() -- CPU_ReadMem(4 bytes @ 0xE0001000) -- CPU_WriteMem(4 bytes @ 0xE0001000) (0007ms, 24735ms total)
T184C 6150:000 JLINK_IsHalted() -- CPU_ReadMem(2 bytes @ 0x20000000)  returns TRUE (0013ms, 24748ms total)
T184C 6150:013 JLINK_ReadReg(R15 (PC))  returns 0x20000000 (0000ms, 24735ms total)
T184C 6150:013 JLINK_ClrBPEx(BPHandle = 0x0000000E)  returns 0x00 (0000ms, 24735ms total)
T184C 6150:013 JLINK_ReadReg(R0)  returns 0x00000001 (0000ms, 24735ms total)
T184C 6150:013 JLINK_WriteReg(R0, 0x08002000)  returns 0x00 (0000ms, 24735ms total)
T184C 6150:013 JLINK_WriteReg(R1, 0x00000400)  returns 0x00 (0000ms, 24735ms total)
T184C 6150:013 JLINK_WriteReg(R2, 0x000000FF)  returns 0x00 (0000ms, 24735ms total)
T184C 6150:013 JLINK_WriteReg(R3, 0x00000000)  returns 0x00 (0000ms, 24735ms total)
T184C 6150:013 JLINK_WriteReg(R4, 0x00000000)  returns 0x00 (0000ms, 24735ms total)
T184C 6150:013 JLINK_WriteReg(R5, 0x00000000)  returns 0x00 (0000ms, 24735ms total)
T184C 6150:013 JLINK_WriteReg(R6, 0x00000000)  returns 0x00 (0000ms, 24735ms total)
T184C 6150:013 JLINK_WriteReg(R7, 0x00000000)  returns 0x00 (0000ms, 24735ms total)
T184C 6150:013 JLINK_WriteReg(R8, 0x00000000)  returns 0x00 (0000ms, 24735ms total)
T184C 6150:013 JLINK_WriteReg(R9, 0x2000016C)  returns 0x00 (0000ms, 24735ms total)
T184C 6150:013 JLINK_WriteReg(R10, 0x00000000)  returns 0x00 (0000ms, 24735ms total)
T184C 6150:013 JLINK_WriteReg(R11, 0x00000000)  returns 0x00 (0000ms, 24735ms total)
T184C 6150:013 JLINK_WriteReg(R12, 0x00000000)  returns 0x00 (0000ms, 24735ms total)
T184C 6150:013 JLINK_WriteReg(R13 (SP), 0x20001000)  returns 0x00 (0000ms, 24735ms total)
T184C 6150:013 JLINK_WriteReg(R14, 0x20000001)  returns 0x00 (0000ms, 24735ms total)
T184C 6150:013 JLINK_WriteReg(R15 (PC), 0x200000B8)  returns 0x00 (0000ms, 24735ms total)
T184C 6150:013 JLINK_WriteReg(XPSR, 0x01000000)  returns 0x00 (0001ms, 24736ms total)
T184C 6150:014 JLINK_WriteReg(MSP, 0x20001000)  returns 0x00 (0000ms, 24736ms total)
T184C 6150:014 JLINK_WriteReg(PSP, 0x20001000)  returns 0x00 (0000ms, 24736ms total)
T184C 6150:014 JLINK_WriteReg(CFBP, 0x00000000)  returns 0x00 (0000ms, 24736ms total)
T184C 6150:014 JLINK_SetBPEx(Addr = 0x20000000, Type = 0xFFFFFFF2)  returns 0x0000000F (0000ms, 24736ms total)
T184C 6150:014 JLINK_Go() -- CPU_ReadMem(4 bytes @ 0xE0001000) -- CPU_WriteMem(4 bytes @ 0xE0001000) (0006ms, 24742ms total)
T184C 6150:020 JLINK_IsHalted()  returns FALSE (0002ms, 24744ms total)
T184C 6150:027 JLINK_IsHalted()  returns FALSE (0001ms, 24743ms total)
T184C 6150:030 JLINK_IsHalted()  returns FALSE (0001ms, 24743ms total)
T184C 6150:033 JLINK_IsHalted()  returns FALSE (0001ms, 24743ms total)
T184C 6150:036 JLINK_IsHalted()  returns FALSE (0001ms, 24743ms total)
T184C 6150:039 JLINK_IsHalted()  returns FALSE (0001ms, 24743ms total)
T184C 6150:042 JLINK_IsHalted() -- CPU_ReadMem(2 bytes @ 0x20000000)  returns TRUE (0012ms, 24754ms total)
T184C 6150:054 JLINK_ReadReg(R15 (PC))  returns 0x20000000 (0000ms, 24742ms total)
T184C 6150:054 JLINK_ClrBPEx(BPHandle = 0x0000000F)  returns 0x00 (0000ms, 24742ms total)
T184C 6150:054 JLINK_ReadReg(R0)  returns 0x00000000 (0000ms, 24742ms total)
T184C 6150:056 JLINK_WriteReg(R0, 0x08002400)  returns 0x00 (0000ms, 24742ms total)
T184C 6150:056 JLINK_WriteReg(R1, 0x00000400)  returns 0x00 (0000ms, 24742ms total)
T184C 6150:056 JLINK_WriteReg(R2, 0x000000FF)  returns 0x00 (0000ms, 24742ms total)
T184C 6150:056 JLINK_WriteReg(R3, 0x00000000)  returns 0x00 (0000ms, 24742ms total)
T184C 6150:056 JLINK_WriteReg(R4, 0x00000000)  returns 0x00 (0000ms, 24742ms total)
T184C 6150:056 JLINK_WriteReg(R5, 0x00000000)  returns 0x00 (0000ms, 24742ms total)
T184C 6150:056 JLINK_WriteReg(R6, 0x00000000)  returns 0x00 (0000ms, 24742ms total)
T184C 6150:056 JLINK_WriteReg(R7, 0x00000000)  returns 0x00 (0000ms, 24742ms total)
T184C 6150:056 JLINK_WriteReg(R8, 0x00000000)  returns 0x00 (0000ms, 24742ms total)
T184C 6150:056 JLINK_WriteReg(R9, 0x2000016C)  returns 0x00 (0000ms, 24742ms total)
T184C 6150:056 JLINK_WriteReg(R10, 0x00000000)  returns 0x00 (0000ms, 24742ms total)
T184C 6150:057 JLINK_WriteReg(R11, 0x00000000)  returns 0x00 (0000ms, 24743ms total)
T184C 6150:057 JLINK_WriteReg(R12, 0x00000000)  returns 0x00 (0000ms, 24743ms total)
T184C 6150:057 JLINK_WriteReg(R13 (SP), 0x20001000)  returns 0x00 (0000ms, 24743ms total)
T184C 6150:057 JLINK_WriteReg(R14, 0x20000001)  returns 0x00 (0000ms, 24743ms total)
T184C 6150:057 JLINK_WriteReg(R15 (PC), 0x20000020)  returns 0x00 (0000ms, 24743ms total)
T184C 6150:057 JLINK_WriteReg(XPSR, 0x01000000)  returns 0x00 (0000ms, 24743ms total)
T184C 6150:057 JLINK_WriteReg(MSP, 0x20001000)  returns 0x00 (0000ms, 24743ms total)
T184C 6150:057 JLINK_WriteReg(PSP, 0x20001000)  returns 0x00 (0000ms, 24743ms total)
T184C 6150:057 JLINK_WriteReg(CFBP, 0x00000000)  returns 0x00 (0000ms, 24743ms total)
T184C 6150:057 JLINK_SetBPEx(Addr = 0x20000000, Type = 0xFFFFFFF2)  returns 0x00000010 (0000ms, 24743ms total)
T184C 6150:057 JLINK_Go() -- CPU_ReadMem(4 bytes @ 0xE0001000) -- CPU_WriteMem(4 bytes @ 0xE0001000) (0007ms, 24750ms total)
T184C 6150:064 JLINK_IsHalted()  returns FALSE (0001ms, 24751ms total)
T184C 6150:071 JLINK_IsHalted() -- CPU_ReadMem(2 bytes @ 0x20000000)  returns TRUE (0012ms, 24762ms total)
T184C 6150:083 JLINK_ReadReg(R15 (PC))  returns 0x20000000 (0000ms, 24750ms total)
T184C 6150:083 JLINK_ClrBPEx(BPHandle = 0x00000010)  returns 0x00 (0000ms, 24750ms total)
T184C 6150:083 JLINK_ReadReg(R0)  returns 0x00000000 (0000ms, 24750ms total)
T184C 6150:085 JLINK_WriteReg(R0, 0x08002800)  returns 0x00 (0000ms, 24750ms total)
T184C 6150:085 JLINK_WriteReg(R1, 0x00000400)  returns 0x00 (0000ms, 24750ms total)
T184C 6150:085 JLINK_WriteReg(R2, 0x000000FF)  returns 0x00 (0000ms, 24750ms total)
T184C 6150:085 JLINK_WriteReg(R3, 0x00000000)  returns 0x00 (0000ms, 24750ms total)
T184C 6150:085 JLINK_WriteReg(R4, 0x00000000)  returns 0x00 (0000ms, 24750ms total)
T184C 6150:085 JLINK_WriteReg(R5, 0x00000000)  returns 0x00 (0000ms, 24750ms total)
T184C 6150:085 JLINK_WriteReg(R6, 0x00000000)  returns 0x00 (0000ms, 24750ms total)
T184C 6150:085 JLINK_WriteReg(R7, 0x00000000)  returns 0x00 (0000ms, 24750ms total)
T184C 6150:085 JLINK_WriteReg(R8, 0x00000000)  returns 0x00 (0000ms, 24750ms total)
T184C 6150:085 JLINK_WriteReg(R9, 0x2000016C)  returns 0x00 (0000ms, 24750ms total)
T184C 6150:085 JLINK_WriteReg(R10, 0x00000000)  returns 0x00 (0000ms, 24750ms total)
T184C 6150:085 JLINK_WriteReg(R11, 0x00000000)  returns 0x00 (0000ms, 24750ms total)
T184C 6150:085 JLINK_WriteReg(R12, 0x00000000)  returns 0x00 (0000ms, 24750ms total)
